T6198 2466:661.420   SEGGER J-Link V7.54c Log File
T6198 2466:661.514   DLL Compiled: Sep 20 2021 13:55:02
T6198 2466:661.543   Logging started @ 2021-10-09 02:26
T6198 2466:661.570 - 54.006ms
T6198 2466:676.125 JLINK_ExecCommand("Device = ATSAM4E8E", ...). 
T6198 2466:676.597   Device "ATSAM4E8E" selected.
T6198 2466:676.990 - 0.834ms returns 0x00
T6198 2466:677.024 JLINK_TIF_Select(JLINKARM_TIF_SWD)
T6198 2466:678.688 - 1.711ms returns 0x00
T6198 2466:678.756 JLINK_SetSpeed(4000)
T6198 2466:679.114 - 0.390ms
T6198 2466:679.165 JLINK_ResetPullsRESET(OFF)
T6198 2466:679.185 - 0.029ms
T6198 2466:679.206 JLINK_Connect()
T6198 2466:680.784   Found SW-DP with ID 0x2BA01477
T6198 2466:684.919   DPIDR: 0x2BA01477
T6198 2466:685.120   Scanning AP map to find all available APs
T6198 2466:686.222   AP[1]: Stopped AP scan as end of AP map has been reached
T6198 2466:686.246   AP[0]: AHB-AP (IDR: 0x24770011)
T6198 2466:686.266   Iterating through AP map to find AHB-AP to use
T6198 2466:687.571   AP[0]: Core found
T6198 2466:687.595   AP[0]: AHB-AP ROM base: 0xE00FF000
T6198 2466:688.315   CPUID register: 0x410FC241. Implementer code: 0x41 (ARM)
T6198 2466:688.341   Found Cortex-M4 r0p1, Little endian.
T6198 2466:790.400   -- Max. mem block: 0x00010C40
T6198 2466:790.823   CPU_ReadMem(4 bytes @ 0xE000EDF0)
T6198 2466:791.464   CPU_WriteMem(4 bytes @ 0xE000EDF0)
T6198 2466:792.118   CPU_ReadMem(4 bytes @ 0xE0002000)
T6198 2466:792.722   FPUnit: 6 code (BP) slots and 2 literal slots
T6198 2466:792.738   CPU_ReadMem(4 bytes @ 0xE000EDFC)
T6198 2466:793.362   CPU_WriteMem(4 bytes @ 0xE000EDFC)
T6198 2466:793.987   CPU_ReadMem(4 bytes @ 0xE0001000)
T6198 2466:794.579   CPU_WriteMem(4 bytes @ 0xE0001000)
T6198 2466:795.248   CPU_ReadMem(4 bytes @ 0xE000ED88)
T6198 2466:795.845   CPU_WriteMem(4 bytes @ 0xE000ED88)
T6198 2466:796.429   CPU_ReadMem(4 bytes @ 0xE000ED88)
T6198 2466:797.048   CPU_WriteMem(4 bytes @ 0xE000ED88)
T6198 2466:797.613   CoreSight components:
T6198 2466:797.635   ROMTbl[0] @ E00FF000
T6198 2466:797.648   CPU_ReadMem(64 bytes @ 0xE00FF000)
T6198 2466:798.562   CPU_ReadMem(32 bytes @ 0xE000EFE0)
T6198 2466:799.263   [0][0]: E000E000 CID B105E00D PID 000BB00C SCS-M7
T6198 2466:799.280   CPU_ReadMem(32 bytes @ 0xE0001FE0)
T6198 2466:799.963   [0][1]: E0001000 CID B105E00D PID 003BB002 DWT
T6198 2466:799.979   CPU_ReadMem(32 bytes @ 0xE0002FE0)
T6198 2466:800.655   [0][2]: E0002000 CID B105E00D PID 002BB003 FPB
T6198 2466:800.672   CPU_ReadMem(32 bytes @ 0xE0000FE0)
T6198 2466:801.350   [0][3]: E0000000 CID B105E00D PID 003BB001 ITM
T6198 2466:801.366   CPU_ReadMem(32 bytes @ 0xE0040FE0)
T6198 2466:802.067   [0][4]: E0040000 CID B105900D PID 000BB9A1 TPIU
T6198 2466:802.087 - 122.884ms returns 0x00
T6198 2466:802.141 JLINK_Halt()
T6198 2466:804.931 - 2.798ms returns 0x00
T6198 2466:805.050 JLINK_BeginDownload(Flags = 0x00000000)
T6198 2466:805.061 - 0.014ms
T6198 2466:805.082 JLINK_WriteMem(0x400E0A04, 0x4 Bytes, ...)
T6198 2466:805.091   Data:  0B 01 00 5A
T6198 2466:805.423   CPU_WriteMem(4 bytes @ 0x400E0A04)
T6198 2466:805.960 - 0.885ms returns 0x4
T6198 2466:805.995 JLINK_EndDownload()
T6198 2466:806.004 - 0.014ms returns 0 (0x0)
T6198 2466:806.015 JLINK_ReadMemHW(0x400E0A08, 0x0004 Bytes, ...)
T6198 2466:806.025   CPU_ReadMem(4 bytes @ 0x400E0A08)
T6198 2466:806.575   Data:  01 00 00 00
T6198 2466:806.591 - 0.580ms returns 0
T6198 2466:806.624 JLINK_SetResetType(JLINKARM_CM3_RESET_TYPE_NORMAL)
T6198 2466:806.633 - 0.012ms returns JLINKARM_CM3_RESET_TYPE_NORMAL
T6198 2466:806.643 JLINK_Reset()
T6198 2466:807.192   CPU_ReadMem(16 bytes @ 0x20000000)
T6198 2466:807.894   CPU_WriteMem(16 bytes @ 0x20000000)
T6198 2466:808.570   CPU_ReadMem(4 bytes @ 0xE000EDFC)
T6198 2466:809.139   CPU_WriteMem(4 bytes @ 0xE000EDFC)
T6198 2466:809.765   CPU_ReadMem(4 bytes @ 0xE0001000)
T6198 2466:824.775   CPU_WriteMem(4 bytes @ 0xE000EDFC)
T6198 2466:825.431   CPU_WriteMem(16 bytes @ 0x20000000)
T6198 2466:828.965   CPU_WriteMem(4 bytes @ 0xE0002000)
T6198 2466:829.601   CPU_ReadMem(4 bytes @ 0xE000EDFC)
T6198 2466:830.221   CPU_ReadMem(4 bytes @ 0xE0001000)
T6198 2466:830.792 - 24.158ms
T6198 2466:832.076 JLINK_JTAG_GetDeviceID(DeviceIndex = 0)
T6198 2466:832.090 - 0.017ms returns 0
T6198 2466:832.100 JLINK_ReadMemU32(0x400E0740, 0x1 Items)
T6198 2466:832.116   CPU_ReadMem(4 bytes @ 0x400E0740)
T6198 2466:832.721   Data:  E1 0C CC A3
T6198 2466:832.748 - 0.654ms returns 1 (0x1)
T6198 2466:832.806 JLINK_ReadMemU32(0x400E0744, 0x1 Items)
T6198 2466:832.831   CPU_ReadMem(4 bytes @ 0x400E0744)
T6198 2466:833.385   Data:  08 02 12 00
T6198 2466:833.414 - 0.612ms returns 1 (0x1)
T2830 2466:841.783 JLINK_IsHalted()
T2830 2466:841.812 - 0.033ms returns TRUE
T2830 2466:841.824 JLINK_GetMOEs(...)
T2830 2466:841.838   CPU_ReadMem(4 bytes @ 0xE000ED30)
T2830 2466:842.434 - 0.636ms returns 0x01
T2830 2466:842.476 JLINK_ReadReg(R15 (PC))
T2830 2466:842.492 - 0.021ms returns 0xFFFFFFFE
T6198 2466:860.770 JLINK_BeginDownload(Flags = 0x00000000)
T6198 2466:860.794 - 0.027ms
T6198 2466:860.815 JLINK_WriteMem(0x00400000, 0x4000 Bytes, ...)
T6198 2466:860.824   Data:  78 DC 00 20 75 4F 40 00 E7 4E 40 00 E7 4E 40 00 ...
T6198 2466:861.178   completely In flash
T6198 2466:861.210    -- Read from flash cache (16384 bytes @ 0x00400000)
T6198 2466:861.223 - 0.412ms returns 0x4000
T6198 2466:861.246 JLINK_WriteMem(0x00404000, 0x794C Bytes, ...)
T6198 2466:861.255   Data:  FB 71 FB 79 18 46 08 4B 98 47 03 46 00 2B 01 D0 ...
T6198 2466:861.292   completely In flash
T6198 2466:861.345    -- Read from flash cache (31052 bytes @ 0x00404000)
T6198 2466:861.362 - 0.119ms returns 0x794C
T6198 2466:861.526 JLINK_WriteMem(0x0040B94C, 0x8 Bytes, ...)
T6198 2466:861.537   Data:  D0 AB FF 7F 01 00 00 00
T6198 2466:861.549   completely In flash
T6198 2466:861.559 - 0.036ms returns 0x8
T6198 2466:861.640 JLINK_WriteMem(0x0040B954, 0x9D0 Bytes, ...)
T6198 2466:861.651   Data:  BF F3 5F 8F 01 38 FB D1 70 47 00 00 AA AA AA AA ...
T6198 2466:861.664   completely In flash
T6198 2466:861.678    -- Read from flash cache (2512 bytes @ 0x0040B954)
T6198 2466:861.689 - 0.052ms returns 0x9D0
T6198 2466:868.647 JLINK_EndDownload()
T6198 2466:869.256   CPU_ReadMem(4 bytes @ 0xE000ED90)
T6198 2466:869.905   CPU_ReadMem(4 bytes @ 0xE000ED94)
T6198 2466:870.606    -- --------------------------------------
T6198 2466:870.626   Flash bank @ 0x00400000: Default: L2 verify disabled because algorithm performs L1 verify
T6198 2466:870.637    -- Start of determining dirty areas in flash cache
T6198 2466:870.737    -- End of determining dirty areas
T6198 2466:870.749    -- Start of preparing flash programming
T6198 2466:870.761    -- Calculating RAM usage
T6198 2466:870.787    -- RAM usage = 3876 Bytes
T6198 2466:870.798    -- Preserving CPU registers
T6198 2466:870.823    -- Preparing memory
T6198 2466:870.834    -- Preparing target
T6198 2467:033.217    -- Preserving target RAM temporarily used for programming
T6198 2467:052.347    -- Downloading RAMCode
T6198 2467:067.584    -- Preparing RAMCode
T6198 2467:076.260    -- Checking target RAM
T6198 2467:079.022    -- End of preparing flash programming
T6198 2467:079.214   Looking for J-Link GUI Server exe at: C:\Program Files (x86)\Atmel\Studio\7.0\atbackend\JLinkGUIServer.exe
T6198 2467:079.313   Looking for J-Link GUI Server exe at: C:\Program Files\SEGGER\JLink\JLinkGUIServer.exe
T6198 2467:079.355   Forking J-Link GUI Server: C:\Program Files\SEGGER\JLink\JLinkGUIServer.exe
T6198 2467:112.523   J-Link GUI Server info: "J-Link GUI server V7.54c "
T6198 2467:124.470    -- CPU is running at 90000 kHz.
T6198 2467:124.504    -- Start of comparing flash
T6198 2467:124.517    -- CRC check was estimated as fastest method
T6198 2467:176.026    -- Comparing range 0x400000 - 0x40CFFF (13 Sectors, 52 KB), using multi-block CRC calculation
T6198 2467:193.410    -- CRC does not match for sectors 0-12
T6198 2467:193.435    -- End of comparing flash
T6198 2467:193.447    -- Start of erasing sectors
T6198 2467:193.458    -- End of erasing sectors
T6198 2467:193.542    -- Start of flash programming
T6198 2467:193.554    -- Programming range 0x00400000 - 0x00407FFF (  8 Sectors, 32 KB)
T6198 2467:449.386    -- Programming range 0x00408000 - 0x0040CFFF (  5 Sectors, 20 KB)
T6198 2467:582.780    -- End of flash programming
T6198 2467:582.814    -- 0x400000 - 0x40CFFF ( 13 Sectors, 52 KoB)
T6198 2467:582.826    -- Start of restoring
T6198 2467:582.837    -- Restoring RAMCode
T6198 2467:598.425    -- Restoring target memory
T6198 2467:612.996    -- Restore target
T6198 2467:665.956    -- Restore memory
T6198 2467:665.988    -- Restoring CPU registers
T6198 2467:666.010    -- End of restoring
T6198 2467:666.060    -- Bank 0 @ 0x00400000: 1 range affected (53248 bytes)
T6198 2467:666.085    -- Total: 0.795s (Prepare: 0.253s, Compare: 0.068s, Erase: 0.000s, Program & Verify: 0.398s, Restore: 0.073s)
T6198 2467:666.104    -- Program & Verify speed: 130 KB/s
T6198 2467:671.901 - 803.272ms returns 53248 (0xD000)
T6198 2467:672.619 JLINK_SetResetType(JLINKARM_CM3_RESET_TYPE_NORMAL)
T6198 2467:672.634 - 0.019ms returns JLINKARM_CM3_RESET_TYPE_NORMAL
T6198 2467:672.645 JLINK_Reset()
T6198 2467:673.198   CPU_ReadMem(16 bytes @ 0x20000000)
T6198 2467:673.771   CPU_WriteMem(16 bytes @ 0x20000000)
T6198 2467:674.418   CPU_ReadMem(4 bytes @ 0xE000EDFC)
T6198 2467:674.938   CPU_WriteMem(4 bytes @ 0xE000EDFC)
T6198 2467:675.538   CPU_ReadMem(4 bytes @ 0xE0001000)
T6198 2467:693.047   CPU_WriteMem(4 bytes @ 0xE000EDFC)
T6198 2467:694.087   CPU_WriteMem(16 bytes @ 0x20000000)
T6198 2467:698.502   CPU_WriteMem(4 bytes @ 0xE0002000)
T6198 2467:699.134   CPU_ReadMem(4 bytes @ 0xE000EDFC)
T6198 2467:699.736   CPU_ReadMem(4 bytes @ 0xE0001000)
T6198 2467:700.374 - 27.747ms
T2830 2467:847.869 JLINK_IsHalted()
T2830 2467:847.897 - 0.032ms returns TRUE
T31C4 2467:967.263 JLINK_Halt()
T31C4 2467:967.283 - 0.024ms returns 0x00
T31C4 2467:967.307 JLINK_ReadReg(R15 (PC))
T31C4 2467:967.318 - 0.014ms returns 0x00404F74
T31C4 2467:967.332 JLINK_ReadReg(R13 (SP))
T31C4 2467:967.340 - 0.012ms returns 0x2000DC78
T31C4 2467:972.631 JLINK_ReadMemHW(0x00404F74, 0x0004 Bytes, ...)
T31C4 2467:972.661   CPU_ReadMem(4 bytes @ 0x00404F74)
T31C4 2467:973.323   Data:  80 B5 84 B0
T31C4 2467:973.354 - 0.728ms returns 0
T31C4 2467:973.694 JLINK_ReadReg(R0)
T31C4 2467:973.716 - 0.041ms returns 0x00000000
T31C4 2467:973.736 JLINK_ReadReg(R1)
T31C4 2467:973.747 - 0.014ms returns 0x00000000
T31C4 2467:973.760 JLINK_ReadReg(R2)
T31C4 2467:973.768 - 0.011ms returns 0x00000000
T31C4 2467:973.779 JLINK_ReadReg(R3)
T31C4 2467:973.787 - 0.011ms returns 0x00000000
T31C4 2467:973.798 JLINK_ReadReg(R4)
T31C4 2467:973.806 - 0.010ms returns 0x00000000
T31C4 2467:973.817 JLINK_ReadReg(R5)
T31C4 2467:973.824 - 0.010ms returns 0x00000000
T31C4 2467:973.836 JLINK_ReadReg(R6)
T31C4 2467:973.843 - 0.011ms returns 0x00000000
T31C4 2467:973.855 JLINK_ReadReg(R7)
T31C4 2467:973.862 - 0.010ms returns 0x00000000
T31C4 2467:973.874 JLINK_ReadReg(R8)
T31C4 2467:973.881 - 0.011ms returns 0x00000000
T31C4 2467:973.893 JLINK_ReadReg(R9)
T31C4 2467:973.901 - 0.011ms returns 0x00000000
T31C4 2467:973.912 JLINK_ReadReg(R10)
T31C4 2467:973.920 - 0.010ms returns 0x00000000
T31C4 2467:973.931 JLINK_ReadReg(R11)
T31C4 2467:973.939 - 0.010ms returns 0x00000000
T31C4 2467:973.950 JLINK_ReadReg(R12)
T31C4 2467:973.957 - 0.010ms returns 0x00000000
T31C4 2467:973.969 JLINK_ReadReg(R13 (SP))
T31C4 2467:973.977 - 0.011ms returns 0x2000DC78
T31C4 2467:973.988 JLINK_ReadReg(R14)
T31C4 2467:973.996 - 0.011ms returns 0xFFFFFFFF
T31C4 2467:974.011 JLINK_ReadReg(R15 (PC))
T31C4 2467:974.019 - 0.011ms returns 0x00404F74
T31C4 2467:974.048 JLINK_ReadReg(XPSR)
T31C4 2467:974.056 - 0.011ms returns 0x01000000
T31C4 2467:974.068 JLINK_ReadReg(MSP)
T31C4 2467:974.076 - 0.011ms returns 0x2000DC78
T31C4 2467:974.087 JLINK_ReadReg(PSP)
T31C4 2467:974.095 - 0.011ms returns 0x00000000
T31C4 2467:974.106 JLINK_ReadReg(PRIMASK)
T31C4 2467:974.114 - 0.011ms returns 0x00000000
T31C4 2467:974.126 JLINK_ReadReg(BASEPRI)
T31C4 2467:974.140 - 0.017ms returns 0x00000000
T31C4 2467:974.153 JLINK_ReadReg(FAULTMASK)
T31C4 2467:974.160 - 0.011ms returns 0x00000000
T31C4 2467:974.172 JLINK_ReadReg(CONTROL)
T31C4 2467:974.179 - 0.011ms returns 0x00000000
T31C4 2467:974.191 JLINK_ReadReg(FPSCR)
T31C4 2467:978.402 - 4.224ms returns 0x00000000
T31C4 2467:978.441 JLINK_ReadReg(FPS0)
T31C4 2467:978.452 - 0.014ms returns 0x00000000
T31C4 2467:978.465 JLINK_ReadReg(FPS1)
T31C4 2467:978.472 - 0.011ms returns 0x00000000
T31C4 2467:978.485 JLINK_ReadReg(FPS2)
T31C4 2467:978.492 - 0.011ms returns 0x00000000
T31C4 2467:978.504 JLINK_ReadReg(FPS3)
T31C4 2467:978.512 - 0.011ms returns 0x00000000
T31C4 2467:978.524 JLINK_ReadReg(FPS4)
T31C4 2467:978.532 - 0.011ms returns 0x00000000
T31C4 2467:978.545 JLINK_ReadReg(FPS5)
T31C4 2467:978.553 - 0.011ms returns 0x00000000
T31C4 2467:978.565 JLINK_ReadReg(FPS6)
T31C4 2467:978.572 - 0.011ms returns 0x00000000
T31C4 2467:978.584 JLINK_ReadReg(FPS7)
T31C4 2467:978.592 - 0.011ms returns 0x00000000
T31C4 2467:978.604 JLINK_ReadReg(FPS8)
T31C4 2467:978.611 - 0.011ms returns 0x00000000
T31C4 2467:978.623 JLINK_ReadReg(FPS9)
T31C4 2467:978.631 - 0.011ms returns 0x00000000
T31C4 2467:978.642 JLINK_ReadReg(FPS10)
T31C4 2467:978.650 - 0.011ms returns 0x00000000
T31C4 2467:978.662 JLINK_ReadReg(FPS11)
T31C4 2467:978.670 - 0.011ms returns 0x00000000
T31C4 2467:978.682 JLINK_ReadReg(FPS12)
T31C4 2467:978.689 - 0.011ms returns 0x00000000
T31C4 2467:978.701 JLINK_ReadReg(FPS13)
T31C4 2467:978.709 - 0.011ms returns 0x00000000
T31C4 2467:978.720 JLINK_ReadReg(FPS14)
T31C4 2467:978.728 - 0.011ms returns 0x00000000
T31C4 2467:978.740 JLINK_ReadReg(FPS15)
T31C4 2467:978.747 - 0.011ms returns 0x00000000
T31C4 2467:978.759 JLINK_ReadReg(FPS16)
T31C4 2467:978.767 - 0.011ms returns 0x00000000
T31C4 2467:978.779 JLINK_ReadReg(FPS17)
T31C4 2467:978.786 - 0.011ms returns 0x00000000
T31C4 2467:978.798 JLINK_ReadReg(FPS18)
T31C4 2467:978.806 - 0.011ms returns 0x00000000
T31C4 2467:978.817 JLINK_ReadReg(FPS19)
T31C4 2467:978.825 - 0.011ms returns 0x00000000
T31C4 2467:978.837 JLINK_ReadReg(FPS20)
T31C4 2467:978.844 - 0.011ms returns 0x00000000
T31C4 2467:978.856 JLINK_ReadReg(FPS21)
T31C4 2467:978.864 - 0.011ms returns 0x00000000
T31C4 2467:978.875 JLINK_ReadReg(FPS22)
T31C4 2467:978.883 - 0.011ms returns 0x00000000
T31C4 2467:978.895 JLINK_ReadReg(FPS23)
T31C4 2467:978.902 - 0.011ms returns 0x00000000
T31C4 2467:978.914 JLINK_ReadReg(FPS24)
T31C4 2467:978.921 - 0.011ms returns 0x00000000
T31C4 2467:978.933 JLINK_ReadReg(FPS25)
T31C4 2467:978.941 - 0.011ms returns 0x00000000
T31C4 2467:978.953 JLINK_ReadReg(FPS26)
T31C4 2467:978.960 - 0.011ms returns 0x00000000
T31C4 2467:978.972 JLINK_ReadReg(FPS27)
T31C4 2467:978.980 - 0.011ms returns 0x00000000
T31C4 2467:978.993 JLINK_ReadReg(FPS28)
T31C4 2467:979.001 - 0.011ms returns 0x00000000
T31C4 2467:979.013 JLINK_ReadReg(FPS29)
T31C4 2467:979.020 - 0.011ms returns 0x00000000
T31C4 2467:979.032 JLINK_ReadReg(FPS30)
T31C4 2467:979.040 - 0.011ms returns 0x00000000
T31C4 2467:979.052 JLINK_ReadReg(FPS31)
T31C4 2467:979.059 - 0.011ms returns 0x00000000
T31C4 2467:979.366 JLINK_ReadMemHW(0x00404F74, 0x0002 Bytes, ...)
T31C4 2467:979.386   CPU_ReadMem(2 bytes @ 0x00404F74)
T31C4 2467:979.962   Data:  80 B5
T31C4 2467:979.979 - 0.616ms returns 0
T31C4 2468:012.668 JLINK_ReadReg(R0)
T31C4 2468:012.688 - 0.024ms returns 0x00000000
T31C4 2468:012.704 JLINK_ReadReg(R1)
T31C4 2468:012.712 - 0.011ms returns 0x00000000
T31C4 2468:012.724 JLINK_ReadReg(R2)
T31C4 2468:012.732 - 0.011ms returns 0x00000000
T31C4 2468:012.744 JLINK_ReadReg(R3)
T31C4 2468:012.752 - 0.011ms returns 0x00000000
T31C4 2468:012.763 JLINK_ReadReg(R4)
T31C4 2468:012.771 - 0.011ms returns 0x00000000
T31C4 2468:012.783 JLINK_ReadReg(R5)
T31C4 2468:012.791 - 0.011ms returns 0x00000000
T31C4 2468:012.803 JLINK_ReadReg(R6)
T31C4 2468:012.810 - 0.011ms returns 0x00000000
T31C4 2468:012.822 JLINK_ReadReg(R7)
T31C4 2468:012.830 - 0.011ms returns 0x00000000
T31C4 2468:012.892 JLINK_ReadReg(R8)
T31C4 2468:012.904 - 0.015ms returns 0x00000000
T31C4 2468:012.916 JLINK_ReadReg(R9)
T31C4 2468:012.923 - 0.011ms returns 0x00000000
T31C4 2468:012.935 JLINK_ReadReg(R10)
T31C4 2468:012.943 - 0.011ms returns 0x00000000
T31C4 2468:012.954 JLINK_ReadReg(R11)
T31C4 2468:012.962 - 0.011ms returns 0x00000000
T31C4 2468:012.974 JLINK_ReadReg(R12)
T31C4 2468:012.982 - 0.011ms returns 0x00000000
T31C4 2468:012.993 JLINK_ReadReg(R13 (SP))
T31C4 2468:013.001 - 0.011ms returns 0x2000DC78
T31C4 2468:013.013 JLINK_ReadReg(R14)
T31C4 2468:013.021 - 0.011ms returns 0xFFFFFFFF
T31C4 2468:013.032 JLINK_ReadReg(R15 (PC))
T31C4 2468:013.040 - 0.011ms returns 0x00404F74
T31C4 2468:013.068 JLINK_ReadReg(XPSR)
T31C4 2468:013.076 - 0.014ms returns 0x01000000
T31C4 2468:013.091 JLINK_ReadReg(MSP)
T31C4 2468:013.099 - 0.011ms returns 0x2000DC78
T31C4 2468:013.111 JLINK_ReadReg(PSP)
T31C4 2468:013.118 - 0.011ms returns 0x00000000
T31C4 2468:013.130 JLINK_ReadReg(PRIMASK)
T31C4 2468:013.138 - 0.011ms returns 0x00000000
T31C4 2468:013.150 JLINK_ReadReg(BASEPRI)
T31C4 2468:013.157 - 0.011ms returns 0x00000000
T31C4 2468:013.169 JLINK_ReadReg(FAULTMASK)
T31C4 2468:013.177 - 0.011ms returns 0x00000000
T31C4 2468:013.189 JLINK_ReadReg(CONTROL)
T31C4 2468:013.196 - 0.011ms returns 0x00000000
T31C4 2468:013.208 JLINK_ReadReg(FPSCR)
T31C4 2468:013.216 - 0.011ms returns 0x00000000
T31C4 2468:013.228 JLINK_ReadReg(FPS0)
T31C4 2468:013.235 - 0.011ms returns 0x00000000
T31C4 2468:013.247 JLINK_ReadReg(FPS1)
T31C4 2468:013.255 - 0.011ms returns 0x00000000
T31C4 2468:013.266 JLINK_ReadReg(FPS2)
T31C4 2468:013.274 - 0.011ms returns 0x00000000
T31C4 2468:013.286 JLINK_ReadReg(FPS3)
T31C4 2468:013.293 - 0.011ms returns 0x00000000
T31C4 2468:013.305 JLINK_ReadReg(FPS4)
T31C4 2468:013.313 - 0.010ms returns 0x00000000
T31C4 2468:013.324 JLINK_ReadReg(FPS5)
T31C4 2468:013.332 - 0.011ms returns 0x00000000
T31C4 2468:013.344 JLINK_ReadReg(FPS6)
T31C4 2468:013.351 - 0.011ms returns 0x00000000
T31C4 2468:013.363 JLINK_ReadReg(FPS7)
T31C4 2468:013.371 - 0.011ms returns 0x00000000
T31C4 2468:013.382 JLINK_ReadReg(FPS8)
T31C4 2468:013.390 - 0.011ms returns 0x00000000
T31C4 2468:013.402 JLINK_ReadReg(FPS9)
T31C4 2468:013.409 - 0.011ms returns 0x00000000
T31C4 2468:013.421 JLINK_ReadReg(FPS10)
T31C4 2468:013.429 - 0.011ms returns 0x00000000
T31C4 2468:013.440 JLINK_ReadReg(FPS11)
T31C4 2468:013.448 - 0.011ms returns 0x00000000
T31C4 2468:013.460 JLINK_ReadReg(FPS12)
T31C4 2468:013.468 - 0.011ms returns 0x00000000
T31C4 2468:013.479 JLINK_ReadReg(FPS13)
T31C4 2468:013.487 - 0.011ms returns 0x00000000
T31C4 2468:013.543 JLINK_ReadReg(FPS14)
T31C4 2468:013.553 - 0.013ms returns 0x00000000
T31C4 2468:013.565 JLINK_ReadReg(FPS15)
T31C4 2468:013.573 - 0.011ms returns 0x00000000
T31C4 2468:013.584 JLINK_ReadReg(FPS16)
T31C4 2468:013.592 - 0.011ms returns 0x00000000
T31C4 2468:013.604 JLINK_ReadReg(FPS17)
T31C4 2468:013.612 - 0.011ms returns 0x00000000
T31C4 2468:013.623 JLINK_ReadReg(FPS18)
T31C4 2468:013.631 - 0.011ms returns 0x00000000
T31C4 2468:013.643 JLINK_ReadReg(FPS19)
T31C4 2468:013.650 - 0.011ms returns 0x00000000
T31C4 2468:013.662 JLINK_ReadReg(FPS20)
T31C4 2468:013.669 - 0.010ms returns 0x00000000
T31C4 2468:013.681 JLINK_ReadReg(FPS21)
T31C4 2468:013.688 - 0.011ms returns 0x00000000
T31C4 2468:013.700 JLINK_ReadReg(FPS22)
T31C4 2468:013.707 - 0.011ms returns 0x00000000
T31C4 2468:013.719 JLINK_ReadReg(FPS23)
T31C4 2468:013.726 - 0.010ms returns 0x00000000
T31C4 2468:013.738 JLINK_ReadReg(FPS24)
T31C4 2468:013.746 - 0.011ms returns 0x00000000
T31C4 2468:013.758 JLINK_ReadReg(FPS25)
T31C4 2468:013.766 - 0.011ms returns 0x00000000
T31C4 2468:013.778 JLINK_ReadReg(FPS26)
T31C4 2468:013.785 - 0.011ms returns 0x00000000
T31C4 2468:013.797 JLINK_ReadReg(FPS27)
T31C4 2468:013.805 - 0.011ms returns 0x00000000
T31C4 2468:013.817 JLINK_ReadReg(FPS28)
T31C4 2468:013.824 - 0.011ms returns 0x00000000
T31C4 2468:013.836 JLINK_ReadReg(FPS29)
T31C4 2468:013.845 - 0.013ms returns 0x00000000
T31C4 2468:013.858 JLINK_ReadReg(FPS30)
T31C4 2468:013.866 - 0.011ms returns 0x00000000
T31C4 2468:013.878 JLINK_ReadReg(FPS31)
T31C4 2468:013.886 - 0.011ms returns 0x00000000
T31C4 2468:026.387 JLINK_ReadMemHW(0x00404F74, 0x0004 Bytes, ...)
T31C4 2468:026.413   CPU_ReadMem(4 bytes @ 0x00404F74)
T31C4 2468:026.984   Data:  80 B5 84 B0
T31C4 2468:027.002 - 0.618ms returns 0
T2830 2468:048.075 JLINK_IsHalted()
T2830 2468:048.114 - 0.046ms returns TRUE
T31C4 2468:083.296 JLINK_ReadMemHW(0x00402CFA, 0x0002 Bytes, ...)
T31C4 2468:083.323   CPU_ReadMem(2 bytes @ 0x00402CFA)
T31C4 2468:083.881   Data:  0F 4B
T31C4 2468:083.901 - 0.609ms returns 0
T31C4 2468:084.222 JLINK_ReadMemHW(0x00402D38, 0x0004 Bytes, ...)
T31C4 2468:084.245   CPU_ReadMem(4 bytes @ 0x00402D38)
T31C4 2468:084.813   Data:  55 55 40 00
T31C4 2468:084.831 - 0.613ms returns 0
T31C4 2468:085.244 JLINK_ReadMemHW(0x00402CFA, 0x0002 Bytes, ...)
T31C4 2468:085.262   CPU_ReadMem(2 bytes @ 0x00402CFA)
T31C4 2468:085.815   Data:  0F 4B
T31C4 2468:085.830 - 0.590ms returns 0
T6198 2468:123.190 JLINK_GetNumBPUnits(Type = 0xFFFFFF02)
T6198 2468:123.209 - 0.023ms returns 0x06
T6198 2468:123.219 JLINK_SetBPEx(Addr = 0x00402CFA, Type = 0xFFFFFFF2)
T6198 2468:123.230 - 0.014ms returns 0x00000001
T6198 2468:123.240 JLINK_GetBPInfo(BPHandle = 1)
T6198 2468:123.247 - 0.010ms returns 0x0
T31C4 2468:131.260 JLINK_ReadMemHW(0x00402CFA, 0x0002 Bytes, ...)
T31C4 2468:131.288   CPU_ReadMem(2 bytes @ 0x00402CFA)
T31C4 2468:131.878   Data:  0F 4B
T31C4 2468:131.895 - 0.638ms returns 0
T31C4 2468:132.057 JLINK_ReadMemHW(0x00402D38, 0x0004 Bytes, ...)
T31C4 2468:132.074   CPU_ReadMem(4 bytes @ 0x00402D38)
T31C4 2468:132.659   Data:  55 55 40 00
T31C4 2468:132.674 - 0.620ms returns 0
T31C4 2468:132.860 JLINK_ReadMemHW(0x00402D0E, 0x0002 Bytes, ...)
T31C4 2468:132.877   CPU_ReadMem(2 bytes @ 0x00402D0E)
T31C4 2468:133.461   Data:  00 23
T31C4 2468:133.476 - 0.620ms returns 0
T6198 2468:151.746 JLINK_SetBPEx(Addr = 0x00402D0E, Type = 0xFFFFFFF2)
T6198 2468:151.767 - 0.025ms returns 0x00000002
T6198 2468:151.778 JLINK_GetBPInfo(BPHandle = 2)
T6198 2468:151.785 - 0.010ms returns 0x0
T31C4 2468:196.323 JLINK_ReadMemHW(0x0040289E, 0x0002 Bytes, ...)
T31C4 2468:196.361   CPU_ReadMem(2 bytes @ 0x0040289E)
T31C4 2468:196.980   Data:  01 23
T31C4 2468:196.998 - 0.679ms returns 0
T31C4 2468:197.411 JLINK_ReadMemHW(0x0040289E, 0x0002 Bytes, ...)
T31C4 2468:197.437   CPU_ReadMem(2 bytes @ 0x0040289E)
T31C4 2468:198.033   Data:  01 23
T31C4 2468:198.051 - 0.643ms returns 0
T6198 2468:200.641 JLINK_SetBPEx(Addr = 0x0040289E, Type = 0xFFFFFFF2)
T6198 2468:200.677 - 0.040ms returns 0x00000003
T6198 2468:200.689 JLINK_GetBPInfo(BPHandle = 3)
T6198 2468:200.697 - 0.011ms returns 0x0
T31C4 2468:229.651 JLINK_ReadMemHW(0x00402CF0, 0x0002 Bytes, ...)
T31C4 2468:229.676   CPU_ReadMem(2 bytes @ 0x00402CF0)
T31C4 2468:230.264   Data:  FE E7
T31C4 2468:230.282 - 0.634ms returns 0
T31C4 2468:230.513 JLINK_ReadMemHW(0x00402CF0, 0x0002 Bytes, ...)
T31C4 2468:230.528   CPU_ReadMem(2 bytes @ 0x00402CF0)
T31C4 2468:231.106   Data:  FE E7
T31C4 2468:231.124 - 0.615ms returns 0
T6198 2468:233.312 JLINK_SetBPEx(Addr = 0x00402CF0, Type = 0xFFFFFFF2)
T6198 2468:233.331 - 0.023ms returns 0x00000004
T6198 2468:233.342 JLINK_GetBPInfo(BPHandle = 4)
T6198 2468:233.349 - 0.011ms returns 0x0
T2830 2468:248.111 JLINK_IsHalted()
T2830 2468:248.720 - 0.620ms returns TRUE
T31C4 2468:271.270 JLINK_ReadMemHW(0x00402D60, 0x0002 Bytes, ...)
T31C4 2468:271.302   CPU_ReadMem(2 bytes @ 0x00402D60)
T31C4 2468:271.893   Data:  01 4B
T31C4 2468:271.912 - 0.645ms returns 0
T31C4 2468:282.227 JLINK_ReadMemHW(0x00402D68, 0x0004 Bytes, ...)
T31C4 2468:282.262   CPU_ReadMem(4 bytes @ 0x00402D68)
T31C4 2468:282.801   Data:  3D 26 40 00
T31C4 2468:282.819 - 0.596ms returns 0
T31C4 2468:283.075 JLINK_ReadMemHW(0x00402D60, 0x0002 Bytes, ...)
T31C4 2468:283.101   CPU_ReadMem(2 bytes @ 0x00402D60)
T31C4 2468:283.626   Data:  01 4B
T31C4 2468:283.656 - 0.586ms returns 0
T6198 2468:286.944 JLINK_SetBPEx(Addr = 0x00402D60, Type = 0xFFFFFFF2)
T6198 2468:287.016 - 0.078ms returns 0x00000005
T6198 2468:287.034 JLINK_GetBPInfo(BPHandle = 5)
T6198 2468:287.043 - 0.014ms returns 0x0
T31C4 2468:340.576 JLINK_SetResetType(JLINKARM_CM3_RESET_TYPE_NORMAL)
T31C4 2468:340.596 - 0.025ms returns JLINKARM_CM3_RESET_TYPE_NORMAL
T31C4 2468:340.616 JLINK_Reset()
T31C4 2468:340.641   CPU_ReadMem(16 bytes @ 0x20000000)
T31C4 2468:341.311   CPU_WriteMem(16 bytes @ 0x20000000)
T31C4 2468:341.958   CPU_ReadMem(4 bytes @ 0xE000EDFC)
T31C4 2468:342.538   CPU_WriteMem(4 bytes @ 0xE000EDFC)
T31C4 2468:343.190   CPU_ReadMem(4 bytes @ 0xE0001000)
T31C4 2468:343.720   CPU_WriteMem(4 bytes @ 0xE0001004)
T31C4 2468:359.185   CPU_WriteMem(4 bytes @ 0xE000EDFC)
T31C4 2468:359.717   CPU_WriteMem(16 bytes @ 0x20000000)
T31C4 2468:363.045   CPU_WriteMem(4 bytes @ 0xE0002000)
T31C4 2468:363.584   CPU_ReadMem(4 bytes @ 0xE000EDFC)
T31C4 2468:364.084   CPU_ReadMem(4 bytes @ 0xE0001000)
T31C4 2468:364.743 - 24.139ms
T2830 2468:364.777 JLINK_IsHalted()
T2830 2468:364.801 - 0.028ms returns TRUE
T2830 2468:364.814 JLINK_GetMOEs(...)
T2830 2468:364.826   CPU_ReadMem(4 bytes @ 0xE000ED30)
T2830 2468:365.367 - 0.568ms returns 0x01
T2830 2468:365.443 JLINK_ReadReg(R15 (PC))
T2830 2468:365.458 - 0.019ms returns 0x00404F74
T31C4 2468:375.482 JLINK_ReadReg(R15 (PC))
T31C4 2468:375.509 - 0.031ms returns 0x00404F74
T31C4 2468:375.525 JLINK_ReadReg(R13 (SP))
T31C4 2468:375.534 - 0.012ms returns 0x2000DC78
T31C4 2468:375.844 JLINK_ReadMemHW(0x00404F74, 0x0004 Bytes, ...)
T31C4 2468:375.865   CPU_ReadMem(4 bytes @ 0x00404F74)
T31C4 2468:376.457   Data:  80 B5 84 B0
T31C4 2468:376.477 - 0.637ms returns 0
T2830 2468:566.369 JLINK_IsHalted()
T2830 2468:566.393 - 0.027ms returns TRUE
T31C4 2468:566.732 JLINK_ReadMemHW(0x0040527C, 0x0001 Bytes, ...)
T31C4 2468:566.755   CPU_ReadMem(1 bytes @ 0x0040527C)
T31C4 2468:567.365   Data:  80
T31C4 2468:567.382 - 0.654ms returns 0
T31C4 2468:628.573 JLINK_ReadReg(R15 (PC))
T31C4 2468:628.598 - 0.030ms returns 0x00404F74
T31C4 2468:628.692 JLINK_SetBPEx(Addr = 0x0040527C, Type = 0xF2)
T31C4 2468:628.709 - 0.020ms returns 0x00000006
T31C4 2468:628.719 JLINK_GetBPInfo(BPHandle = 6)
T31C4 2468:628.726 - 0.010ms returns 0x80000000
T31C4 2468:628.840 JLINK_Go()
T31C4 2468:628.854    -- Read from flash cache (2 bytes @ 0x00404F74)
T31C4 2468:628.868   CPU_ReadMem(4 bytes @ 0xE000ED18)
T31C4 2468:629.517   CPU_WriteMem(4 bytes @ 0xE000ED18)
T31C4 2468:630.206   CPU_ReadMem(4 bytes @ 0xE000ED18)
T31C4 2468:630.876   CPU_WriteMem(4 bytes @ 0xE000ED18)
T31C4 2468:631.525   CPU_WriteMem(8 bytes @ 0x2000DC70)
T31C4 2468:632.205   -- Simulated
T31C4 2468:632.232    -- Read from flash cache (2 bytes @ 0x00404F76)
T31C4 2468:632.252   -- Simulated
T31C4 2468:632.264    -- Read from flash cache (2 bytes @ 0x00404F78)
T31C4 2468:632.275   -- Simulated
T31C4 2468:632.286    -- Read from flash cache (2 bytes @ 0x00404F7A)
T31C4 2468:632.297    -- Read from flash cache (4 bytes @ 0x00404FF4)
T31C4 2468:632.308   -- Simulated
T31C4 2468:632.318    -- Read from flash cache (2 bytes @ 0x00404F7C)
T31C4 2468:632.331   CPU_WriteMem(4 bytes @ 0x2000DC6C)
T31C4 2468:632.949   -- Simulated
T31C4 2468:632.965    -- Read from flash cache (2 bytes @ 0x00404F7E)
T31C4 2468:632.977    -- Read from flash cache (4 bytes @ 0x00404FF8)
T31C4 2468:632.987   -- Simulated
T31C4 2468:632.998    -- Read from flash cache (2 bytes @ 0x00404F80)
T31C4 2468:633.012   CPU_WriteMem(4 bytes @ 0x2000DC68)
T31C4 2468:633.605   -- Simulated
T31C4 2468:633.620    -- Read from flash cache (2 bytes @ 0x00404F82)
T31C4 2468:633.635   CPU_ReadMem(64 bytes @ 0x2000DC40)
T31C4 2468:634.577    -- Updating C cache (64 bytes @ 0x2000DC40)
T31C4 2468:634.595    -- Read from C cache (4 bytes @ 0x2000DC6C)
T31C4 2468:634.608   -- Simulated
T31C4 2468:634.620    -- Read from flash cache (2 bytes @ 0x00404F84)
T31C4 2468:634.633    -- Read from C cache (4 bytes @ 0x2000DC68)
T31C4 2468:634.651   -- Simulated
T31C4 2468:634.662    -- Read from flash cache (2 bytes @ 0x00404F86)
T31C4 2468:634.673   -- Simulated
T31C4 2468:634.688   CPU_ReadMem(4 bytes @ 0xE000ED90)
T31C4 2468:635.261   CPU_ReadMem(4 bytes @ 0xE000ED94)
T31C4 2468:635.866    -- Start of preparing flash programming
T31C4 2468:635.887    -- Calculating RAM usage
T31C4 2468:635.904    -- RAM usage = 10020 Bytes
T31C4 2468:635.915    -- Preserving CPU registers
T31C4 2468:635.938    -- Preparing memory
T31C4 2468:635.949    -- Preparing target
T31C4 2468:795.765    -- Preserving target RAM temporarily used for programming
T31C4 2468:844.211    -- Downloading RAMCode
T31C4 2468:858.748    -- Preparing RAMCode
T31C4 2468:864.619    -- End of preparing flash programming
T31C4 2468:864.648    -- Read from flash cache (4096 bytes @ 0x00405000)
T31C4 2468:864.661    -- Programming range 0x00405000 - 0x00405FFF (  1 Sector, 4 KB)
T31C4 2468:932.944    -- Start of restoring
T31C4 2468:932.992    -- Restoring RAMCode
T31C4 2468:937.457    -- Restoring target memory
T31C4 2468:974.430    -- Restore target
T31C4 2469:026.463    -- Restore memory
T31C4 2469:026.490    -- Restoring CPU registers
T31C4 2469:026.513    -- End of restoring
T31C4 2469:031.475   CPU_WriteMem(4 bytes @ 0xE0002000)
T31C4 2469:032.099   CPU_WriteMem(4 bytes @ 0xE0002000)
T31C4 2469:032.649   CPU_WriteMem(4 bytes @ 0xE0002000)
T31C4 2469:033.241   CPU_WriteMem(4 bytes @ 0xE0002000)
T31C4 2469:033.835   CPU_WriteMem(4 bytes @ 0xE0002000)
T31C4 2469:034.408   CPU_ReadMem(4 bytes @ 0xE0001000)
T31C4 2469:034.928   CPU_WriteMem(4 bytes @ 0xE0002008)
T31C4 2469:034.955   CPU_WriteMem(4 bytes @ 0xE000200C)
T31C4 2469:034.967   CPU_WriteMem(4 bytes @ 0xE0002010)
T31C4 2469:034.980   CPU_WriteMem(4 bytes @ 0xE0002014)
T31C4 2469:034.995   CPU_WriteMem(4 bytes @ 0xE0002018)
T31C4 2469:035.009   CPU_WriteMem(4 bytes @ 0xE000201C)
T31C4 2469:040.767 - 412.028ms
T2830 2469:041.713 JLINK_IsHalted()
T2830 2469:042.674 - 1.112ms returns FALSE
T2830 2469:065.031 JLINK_IsHalted()
T2830 2469:065.730 - 0.725ms returns FALSE
T2830 2469:146.931 JLINK_IsHalted()
T2830 2469:150.155 - 3.234ms returns TRUE
T2830 2469:150.175 JLINK_GetMOEs(...)
T2830 2469:150.186   CPU_ReadMem(4 bytes @ 0xE000ED30)
T2830 2469:150.999 - 0.832ms returns 0x01
T2830 2469:151.017 JLINK_ReadReg(R15 (PC))
T2830 2469:151.027 - 0.014ms returns 0x0040527C
T31C4 2469:156.020 JLINK_ReadReg(R15 (PC))
T31C4 2469:156.046 - 0.029ms returns 0x0040527C
T31C4 2469:156.061 JLINK_ReadReg(R13 (SP))
T31C4 2469:156.069 - 0.012ms returns 0x2000DC60
T31C4 2469:157.202 JLINK_ReadMemHW(0x0040527C, 0x0004 Bytes, ...)
T31C4 2469:157.375   CPU_ReadMem(4 bytes @ 0x0040527C)
T31C4 2469:158.423   Data:  00 BE 00 AF
T31C4 2469:158.556 - 1.367ms returns 0
T2830 2469:351.224 JLINK_IsHalted()
T2830 2469:351.266 - 0.046ms returns TRUE
T6198 2469:407.072 JLINK_ReadMem(0x40000000, 0x47E Bytes, ...)
T6198 2469:407.101   CPU_ReadMem(1150 bytes @ 0x40000000)
T6198 2469:413.338   Data:  00 00 00 00 00 00 00 00 00 00 00 00 00 00 00 00 ...
T6198 2469:413.358 - 6.289ms returns 0
T6198 2469:417.614 JLINK_ReadMem(0x40000000, 0x47E Bytes, ...)
T6198 2469:417.640   CPU_ReadMem(1150 bytes @ 0x40000000)
T6198 2469:423.849   Data:  00 00 00 00 00 00 00 00 00 00 00 00 00 00 00 00 ...
T6198 2469:423.870 - 6.260ms returns 0
T6198 2469:493.999 JLINK_ReadMem(0x4000047E, 0xE6 Bytes, ...)
T6198 2469:494.029   CPU_ReadMem(230 bytes @ 0x4000047E)
T6198 2469:495.788   Data:  00 00 00 00 00 00 00 00 00 00 00 00 00 00 00 00 ...
T6198 2469:495.805 - 1.810ms returns 0
T6198 2469:503.402 JLINK_ReadMem(0x40000564, 0x14A Bytes, ...)
T6198 2469:503.441   CPU_ReadMem(330 bytes @ 0x40000564)
T6198 2469:505.686   Data:  00 00 00 00 00 00 00 00 00 00 00 00 00 00 00 00 ...
T6198 2469:505.708 - 2.310ms returns 0
T2830 2469:554.065 JLINK_IsHalted()
T2830 2469:554.102 - 0.043ms returns TRUE
T2830 2469:757.692 JLINK_IsHalted()
T2830 2469:758.300 - 0.621ms returns TRUE
T2830 2469:960.281 JLINK_IsHalted()
T2830 2469:960.371 - 0.097ms returns TRUE
T2830 2470:161.932 JLINK_IsHalted()
T2830 2470:161.968 - 0.039ms returns TRUE
T2830 2470:362.169 JLINK_IsHalted()
T2830 2470:363.098 - 0.951ms returns TRUE
T2830 2470:563.866 JLINK_IsHalted()
T2830 2470:563.894 - 0.032ms returns TRUE
T2830 2470:765.006 JLINK_IsHalted()
T2830 2470:765.032 - 0.030ms returns TRUE
T2830 2470:967.694 JLINK_IsHalted()
T2830 2470:968.693 - 1.019ms returns TRUE
T2830 2471:169.129 JLINK_IsHalted()
T2830 2471:169.159 - 0.034ms returns TRUE
T2830 2471:370.475 JLINK_IsHalted()
T2830 2471:370.505 - 0.034ms returns TRUE
T31C4 2471:532.703 JLINK_WriteU32_64(0xE000EDFC, 0x01000000)
T31C4 2471:532.728   Debug reg: DEMCR
T31C4 2471:533.075   CPU_WriteMem(4 bytes @ 0xE000EDFC)
T31C4 2471:533.772 - 1.080ms returns 0 (0x00000000)
T31C4 2471:533.795 JLINK_ReadMem(0xE0001000, 0x4 Bytes, ...)
T31C4 2471:533.808   CPU_ReadMem(4 bytes @ 0xE0001000)
T31C4 2471:534.400   Data:  01 00 00 40
T31C4 2471:534.417   Debug reg: DWT_CTRL
T31C4 2471:534.427 - 0.636ms returns 0
T31C4 2471:534.476 JLINK_WriteU32_64(0xE0001000, 0x40000001)
T31C4 2471:534.485   Debug reg: DWT_CTRL
T31C4 2471:534.502 - 0.029ms returns 0 (0x00000000)
T31C4 2471:534.523 JLINK_WriteU32_64(0xE0001028, 0x00000100)
T31C4 2471:534.532   Debug reg: DWT_FUNC[0]
T31C4 2471:534.545 - 0.025ms returns 0 (0x00000000)
T31C4 2471:534.555 JLINK_ReadMem(0xE0001028, 0x4 Bytes, ...)
T31C4 2471:534.565   CPU_WriteMem(4 bytes @ 0xE0001028)
T31C4 2471:535.149   CPU_ReadMem(4 bytes @ 0xE0001028)
T31C4 2471:535.740   Data:  00 00 00 00
T31C4 2471:535.756   Debug reg: DWT_FUNC[0]
T31C4 2471:535.767 - 1.215ms returns 0
T31C4 2471:535.809 JLINK_WriteU32_64(0xE0001024, 0x0000001F)
T31C4 2471:535.820   Debug reg: DWT_MASK[0]
T31C4 2471:535.835 - 0.029ms returns 0 (0x00000000)
T31C4 2471:535.846 JLINK_ReadMem(0xE0001024, 0x4 Bytes, ...)
T31C4 2471:535.856   CPU_WriteMem(4 bytes @ 0xE0001024)
T31C4 2471:536.487   CPU_ReadMem(4 bytes @ 0xE0001024)
T31C4 2471:537.140   Data:  0F 00 00 00
T31C4 2471:537.155   Debug reg: DWT_MASK[0]
T31C4 2471:537.165 - 1.323ms returns 0
T31C4 2471:537.225 JLINK_WriteU32_64(0xE0001038, 0x00000100)
T31C4 2471:537.236   Debug reg: DWT_FUNC[1]
T31C4 2471:537.252 - 0.031ms returns 0 (0x00000000)
T31C4 2471:537.263 JLINK_ReadMem(0xE0001038, 0x4 Bytes, ...)
T31C4 2471:537.272   CPU_WriteMem(4 bytes @ 0xE0001038)
T31C4 2471:537.864   CPU_ReadMem(4 bytes @ 0xE0001038)
T31C4 2471:538.399   Data:  00 03 00 00
T31C4 2471:538.420   Debug reg: DWT_FUNC[1]
T31C4 2471:538.441 - 1.182ms returns 0
T31C4 2471:538.478 JLINK_WriteU32_64(0xE0001034, 0x0000001F)
T31C4 2471:538.487   Debug reg: DWT_MASK[1]
T31C4 2471:538.502 - 0.027ms returns 0 (0x00000000)
T31C4 2471:538.512 JLINK_ReadMem(0xE0001034, 0x4 Bytes, ...)
T31C4 2471:538.521   CPU_WriteMem(4 bytes @ 0xE0001034)
T31C4 2471:539.104   CPU_ReadMem(4 bytes @ 0xE0001034)
T31C4 2471:539.624   Data:  0F 00 00 00
T31C4 2471:539.639   Debug reg: DWT_MASK[1]
T31C4 2471:539.649 - 1.141ms returns 0
T31C4 2471:539.686 JLINK_WriteU32_64(0xE0001048, 0x00000100)
T31C4 2471:539.695   Debug reg: DWT_FUNC[2]
T31C4 2471:539.710 - 0.027ms returns 0 (0x00000000)
T31C4 2471:539.720 JLINK_ReadMem(0xE0001048, 0x4 Bytes, ...)
T31C4 2471:539.730   CPU_WriteMem(4 bytes @ 0xE0001048)
T31C4 2471:540.231   CPU_ReadMem(4 bytes @ 0xE0001048)
T31C4 2471:540.765   Data:  00 00 00 00
T31C4 2471:540.779   Debug reg: DWT_FUNC[2]
T31C4 2471:540.790 - 1.073ms returns 0
T31C4 2471:540.822 JLINK_WriteU32_64(0xE0001044, 0x0000001F)
T31C4 2471:540.831   Debug reg: DWT_MASK[2]
T31C4 2471:540.845 - 0.026ms returns 0 (0x00000000)
T31C4 2471:540.855 JLINK_ReadMem(0xE0001044, 0x4 Bytes, ...)
T31C4 2471:540.864   CPU_WriteMem(4 bytes @ 0xE0001044)
T31C4 2471:541.402   CPU_ReadMem(4 bytes @ 0xE0001044)
T31C4 2471:541.901   Data:  0F 00 00 00
T31C4 2471:541.915   Debug reg: DWT_MASK[2]
T31C4 2471:541.925 - 1.073ms returns 0
T31C4 2471:541.959 JLINK_WriteU32_64(0xE0001058, 0x00000100)
T31C4 2471:541.968   Debug reg: DWT_FUNC[3]
T31C4 2471:542.002 - 0.046ms returns 0 (0x00000000)
T31C4 2471:542.012 JLINK_ReadMem(0xE0001058, 0x4 Bytes, ...)
T31C4 2471:542.022   CPU_WriteMem(4 bytes @ 0xE0001058)
T31C4 2471:542.547   CPU_ReadMem(4 bytes @ 0xE0001058)
T31C4 2471:543.045   Data:  00 00 00 00
T31C4 2471:543.059   Debug reg: DWT_FUNC[3]
T31C4 2471:543.069 - 1.060ms returns 0
T31C4 2471:543.101 JLINK_WriteU32_64(0xE0001054, 0x0000001F)
T31C4 2471:543.110   Debug reg: DWT_MASK[3]
T31C4 2471:543.124 - 0.026ms returns 0 (0x00000000)
T31C4 2471:543.133 JLINK_ReadMem(0xE0001054, 0x4 Bytes, ...)
T31C4 2471:543.143   CPU_WriteMem(4 bytes @ 0xE0001054)
T31C4 2471:543.727   CPU_ReadMem(4 bytes @ 0xE0001054)
T31C4 2471:544.277   Data:  0F 00 00 00
T31C4 2471:544.299   Debug reg: DWT_MASK[3]
T31C4 2471:544.317 - 1.188ms returns 0
T31C4 2471:544.361 JLINK_WriteU32_64(0xE0001020, 0x00000000)
T31C4 2471:544.370   Debug reg: DWT_COMP[0]
T31C4 2471:544.385 - 0.027ms returns 0 (0x00000000)
T31C4 2471:544.410 JLINK_WriteU32_64(0xE0001024, 0x00000000)
T31C4 2471:544.418   Debug reg: DWT_MASK[0]
T31C4 2471:544.430 - 0.023ms returns 0 (0x00000000)
T31C4 2471:544.447 JLINK_WriteU32_64(0xE0001028, 0x00000000)
T31C4 2471:544.455   Debug reg: DWT_FUNC[0]
T31C4 2471:544.467 - 0.023ms returns 0 (0x00000000)
T31C4 2471:544.485 JLINK_WriteU32_64(0xE0001030, 0x00000000)
T31C4 2471:544.493   Debug reg: DWT_COMP[1]
T31C4 2471:544.505 - 0.023ms returns 0 (0x00000000)
T31C4 2471:544.522 JLINK_WriteU32_64(0xE0001034, 0x00000000)
T31C4 2471:544.530   Debug reg: DWT_MASK[1]
T31C4 2471:544.542 - 0.023ms returns 0 (0x00000000)
T31C4 2471:544.559 JLINK_WriteU32_64(0xE0001038, 0x00000000)
T31C4 2471:544.567   Debug reg: DWT_FUNC[1]
T31C4 2471:544.578 - 0.023ms returns 0 (0x00000000)
T31C4 2471:544.596 JLINK_WriteU32_64(0xE0001040, 0x00000000)
T31C4 2471:544.604   Debug reg: DWT_COMP[2]
T31C4 2471:544.615 - 0.023ms returns 0 (0x00000000)
T31C4 2471:544.633 JLINK_WriteU32_64(0xE0001044, 0x00000000)
T31C4 2471:544.640   Debug reg: DWT_MASK[2]
T31C4 2471:544.652 - 0.022ms returns 0 (0x00000000)
T31C4 2471:544.669 JLINK_WriteU32_64(0xE0001048, 0x00000000)
T31C4 2471:544.677   Debug reg: DWT_FUNC[2]
T31C4 2471:544.688 - 0.022ms returns 0 (0x00000000)
T31C4 2471:544.706 JLINK_WriteU32_64(0xE0001050, 0x00000000)
T31C4 2471:544.713   Debug reg: DWT_COMP[3]
T31C4 2471:544.725 - 0.022ms returns 0 (0x00000000)
T31C4 2471:544.742 JLINK_WriteU32_64(0xE0001054, 0x00000000)
T31C4 2471:544.750   Debug reg: DWT_MASK[3]
T31C4 2471:544.761 - 0.022ms returns 0 (0x00000000)
T31C4 2471:544.779 JLINK_WriteU32_64(0xE0001058, 0x00000000)
T31C4 2471:544.786   Debug reg: DWT_FUNC[3]
T31C4 2471:544.798 - 0.022ms returns 0 (0x00000000)
T31C4 2471:544.809 JLINK_GetBPInfo(BPHandle = 6)
T31C4 2471:544.816 - 0.010ms returns 0x80000000
T31C4 2471:544.826 JLINK_ClrBPEx(BPHandle = 0x00000006)
T31C4 2471:545.362 - 0.543ms returns 0x00
T31C4 2471:545.400 JLINK_ReadReg(R15 (PC))
T31C4 2471:545.410 - 0.013ms returns 0x0040527C
T31C4 2471:545.531 JLINK_Go()
T31C4 2471:545.547    -- Merging zombie BP[5]: 0xB580 @ 0x0040527C
T31C4 2471:545.558    -- Merging zombie BP[5]: 0xB580 @ 0x0040527C
T31C4 2471:545.570   CPU_ReadMem(4 bytes @ 0xE0001004)
T31C4 2471:546.143   CPU_WriteMem(8 bytes @ 0x2000DC58)
T31C4 2471:546.735   -- Simulated
T31C4 2471:546.752    -- Read from flash cache (2 bytes @ 0x0040527E)
T31C4 2471:546.763   -- Simulated
T31C4 2471:546.774    -- Read from flash cache (2 bytes @ 0x00405280)
T31C4 2471:546.786    -- Read from flash cache (4 bytes @ 0x0040528C)
T31C4 2471:546.797   -- Simulated
T31C4 2471:546.807    -- Read from flash cache (2 bytes @ 0x00405282)
T31C4 2471:546.818   -- Simulated
T31C4 2471:546.830    -- Read from flash cache (2 bytes @ 0x00402CF4)
T31C4 2471:546.844   CPU_WriteMem(12 bytes @ 0x2000DC4C)
T31C4 2471:547.458   -- Simulated
T31C4 2471:547.477    -- Read from flash cache (2 bytes @ 0x00402CF6)
T31C4 2471:547.490   -- Simulated
T31C4 2471:547.502    -- Read from flash cache (2 bytes @ 0x00402CF8)
T31C4 2471:547.514   -- Simulated
T31C4 2471:547.530 - 2.003ms
T2830 2471:547.551 JLINK_IsHalted()
T2830 2471:547.564 - 0.018ms returns TRUE
T2830 2471:547.576 JLINK_GetMOEs(...)
T2830 2471:547.583 - 0.011ms returns 0x01
T2830 2471:547.593 JLINK_ReadReg(R15 (PC))
T2830 2471:547.601 - 0.012ms returns 0x00402CFA
T31C4 2471:558.384 JLINK_ReadReg(R15 (PC))
T31C4 2471:558.428 - 0.051ms returns 0x00402CFA
T31C4 2471:558.451 JLINK_ReadReg(R13 (SP))
T31C4 2471:558.460 - 0.012ms returns 0x2000DC38
T31C4 2471:558.824 JLINK_ReadMemHW(0x00402CFA, 0x0004 Bytes, ...)
T31C4 2471:558.845   CPU_ReadMem(4 bytes @ 0x00402CFA)
T31C4 2471:559.464   Data:  0F 4B 98 47
T31C4 2471:559.480 - 0.659ms returns 0
T31C4 2471:559.710 JLINK_ReadReg(R0)
T31C4 2471:559.741 - 0.036ms returns 0x0040B954
T31C4 2471:559.760 JLINK_ReadReg(R1)
T31C4 2471:559.769 - 0.011ms returns 0x0040C324
T31C4 2471:559.781 JLINK_ReadReg(R2)
T31C4 2471:559.788 - 0.011ms returns 0x00000001
T31C4 2471:559.800 JLINK_ReadReg(R3)
T31C4 2471:559.808 - 0.011ms returns 0x00402CF5
T31C4 2471:559.819 JLINK_ReadReg(R4)
T31C4 2471:559.827 - 0.011ms returns 0x00000000
T31C4 2471:559.839 JLINK_ReadReg(R5)
T31C4 2471:559.846 - 0.011ms returns 0x00000000
T31C4 2471:559.857 JLINK_ReadReg(R6)
T31C4 2471:559.865 - 0.010ms returns 0x00000000
T31C4 2471:559.876 JLINK_ReadReg(R7)
T31C4 2471:559.884 - 0.010ms returns 0x2000DC48
T31C4 2471:559.895 JLINK_ReadReg(R8)
T31C4 2471:559.903 - 0.011ms returns 0x00000000
T31C4 2471:559.914 JLINK_ReadReg(R9)
T31C4 2471:559.922 - 0.010ms returns 0x00000000
T31C4 2471:559.933 JLINK_ReadReg(R10)
T31C4 2471:559.941 - 0.011ms returns 0x00000000
T31C4 2471:559.952 JLINK_ReadReg(R11)
T31C4 2471:559.960 - 0.011ms returns 0x00000000
T31C4 2471:559.972 JLINK_ReadReg(R12)
T31C4 2471:559.979 - 0.011ms returns 0x00000000
T31C4 2471:559.991 JLINK_ReadReg(R13 (SP))
T31C4 2471:559.998 - 0.011ms returns 0x2000DC38
T31C4 2471:560.010 JLINK_ReadReg(R14)
T31C4 2471:560.018 - 0.011ms returns 0x00405285
T31C4 2471:560.029 JLINK_ReadReg(R15 (PC))
T31C4 2471:560.037 - 0.011ms returns 0x00402CFA
T31C4 2471:560.065 JLINK_ReadReg(XPSR)
T31C4 2471:560.073 - 0.011ms returns 0x61000000
T31C4 2471:560.084 JLINK_ReadReg(MSP)
T31C4 2471:560.092 - 0.010ms returns 0x2000DC38
T31C4 2471:560.103 JLINK_ReadReg(PSP)
T31C4 2471:560.111 - 0.011ms returns 0x00000000
T31C4 2471:560.123 JLINK_ReadReg(PRIMASK)
T31C4 2471:560.130 - 0.011ms returns 0x00000000
T31C4 2471:560.143 JLINK_ReadReg(BASEPRI)
T31C4 2471:560.150 - 0.011ms returns 0x00000000
T31C4 2471:560.162 JLINK_ReadReg(FAULTMASK)
T31C4 2471:560.169 - 0.011ms returns 0x00000000
T31C4 2471:560.181 JLINK_ReadReg(CONTROL)
T31C4 2471:560.189 - 0.011ms returns 0x00000000
T31C4 2471:560.201 JLINK_ReadReg(FPSCR)
T31C4 2471:564.386 - 4.198ms returns 0x00000000
T31C4 2471:564.430 JLINK_ReadReg(FPS0)
T31C4 2471:564.450 - 0.026ms returns 0x00000000
T31C4 2471:564.468 JLINK_ReadReg(FPS1)
T31C4 2471:564.476 - 0.011ms returns 0x00000000
T31C4 2471:564.488 JLINK_ReadReg(FPS2)
T31C4 2471:564.496 - 0.011ms returns 0x00000000
T31C4 2471:564.508 JLINK_ReadReg(FPS3)
T31C4 2471:564.515 - 0.011ms returns 0x00000000
T31C4 2471:564.527 JLINK_ReadReg(FPS4)
T31C4 2471:564.534 - 0.010ms returns 0x00000000
T31C4 2471:564.546 JLINK_ReadReg(FPS5)
T31C4 2471:564.553 - 0.014ms returns 0x00000000
T31C4 2471:564.569 JLINK_ReadReg(FPS6)
T31C4 2471:564.576 - 0.011ms returns 0x00000000
T31C4 2471:564.588 JLINK_ReadReg(FPS7)
T31C4 2471:564.595 - 0.010ms returns 0x00000000
T31C4 2471:564.607 JLINK_ReadReg(FPS8)
T31C4 2471:564.614 - 0.010ms returns 0x00000000
T31C4 2471:564.626 JLINK_ReadReg(FPS9)
T31C4 2471:564.633 - 0.011ms returns 0x00000000
T31C4 2471:564.645 JLINK_ReadReg(FPS10)
T31C4 2471:564.653 - 0.011ms returns 0x00000000
T31C4 2471:564.665 JLINK_ReadReg(FPS11)
T31C4 2471:564.672 - 0.010ms returns 0x00000000
T31C4 2471:564.684 JLINK_ReadReg(FPS12)
T31C4 2471:564.692 - 0.011ms returns 0x00000000
T31C4 2471:564.703 JLINK_ReadReg(FPS13)
T31C4 2471:564.711 - 0.010ms returns 0x00000000
T31C4 2471:564.722 JLINK_ReadReg(FPS14)
T31C4 2471:564.735 - 0.019ms returns 0x00000000
T31C4 2471:564.751 JLINK_ReadReg(FPS15)
T31C4 2471:564.758 - 0.011ms returns 0x00000000
T31C4 2471:564.770 JLINK_ReadReg(FPS16)
T31C4 2471:564.778 - 0.011ms returns 0x00000000
T31C4 2471:564.789 JLINK_ReadReg(FPS17)
T31C4 2471:564.797 - 0.010ms returns 0x00000000
T31C4 2471:564.808 JLINK_ReadReg(FPS18)
T31C4 2471:564.816 - 0.011ms returns 0x00000000
T31C4 2471:564.828 JLINK_ReadReg(FPS19)
T31C4 2471:564.836 - 0.011ms returns 0x00000000
T31C4 2471:564.847 JLINK_ReadReg(FPS20)
T31C4 2471:564.855 - 0.010ms returns 0x00000000
T31C4 2471:564.866 JLINK_ReadReg(FPS21)
T31C4 2471:564.874 - 0.010ms returns 0x00000000
T31C4 2471:564.888 JLINK_ReadReg(FPS22)
T31C4 2471:564.895 - 0.011ms returns 0x00000000
T31C4 2471:564.907 JLINK_ReadReg(FPS23)
T31C4 2471:564.915 - 0.011ms returns 0x00000000
T31C4 2471:564.926 JLINK_ReadReg(FPS24)
T31C4 2471:564.934 - 0.011ms returns 0x00000000
T31C4 2471:564.946 JLINK_ReadReg(FPS25)
T31C4 2471:564.954 - 0.011ms returns 0x00000000
T31C4 2471:564.965 JLINK_ReadReg(FPS26)
T31C4 2471:564.973 - 0.011ms returns 0x00000000
T31C4 2471:564.984 JLINK_ReadReg(FPS27)
T31C4 2471:564.992 - 0.011ms returns 0x00000000
T31C4 2471:565.004 JLINK_ReadReg(FPS28)
T31C4 2471:565.011 - 0.011ms returns 0x00000000
T31C4 2471:565.023 JLINK_ReadReg(FPS29)
T31C4 2471:565.031 - 0.011ms returns 0x00000000
T31C4 2471:565.042 JLINK_ReadReg(FPS30)
T31C4 2471:565.050 - 0.011ms returns 0x00000000
T31C4 2471:565.062 JLINK_ReadReg(FPS31)
T31C4 2471:565.069 - 0.011ms returns 0x00000000
T31C4 2471:703.971 JLINK_ReadMem(0x2000DC40, 0x40 Bytes, ...)
T31C4 2471:704.003   CPU_ReadMem(64 bytes @ 0x2000DC40)
T31C4 2471:704.933    -- Updating C cache (64 bytes @ 0x2000DC40)
T31C4 2471:704.951    -- Read from C cache (64 bytes @ 0x2000DC40)
T31C4 2471:704.963   Data:  34 B9 40 00 08 00 00 00 60 DC 00 20 00 00 00 00 ...
T31C4 2471:704.974 - 1.006ms returns 0
T31C4 2471:705.278 JLINK_ReadMemHW(0x00405284, 0x0004 Bytes, ...)
T31C4 2471:705.294   CPU_ReadMem(4 bytes @ 0x00405284)
T31C4 2471:705.927   Data:  02 4B 98 47
T31C4 2471:705.941 - 0.667ms returns 0
T2830 2471:748.129 JLINK_IsHalted()
T2830 2471:748.154 - 0.033ms returns TRUE
T6198 2471:799.666 JLINK_ReadMem(0x40000000, 0x6AE Bytes, ...)
T6198 2471:799.696   CPU_ReadMem(1710 bytes @ 0x40000000)
T6198 2471:808.613   Data:  00 00 00 00 00 00 00 00 00 00 00 00 00 00 00 00 ...
T6198 2471:808.631 - 8.968ms returns 0
T6198 2471:814.278 JLINK_ReadMem(0x40000000, 0x6AE Bytes, ...)
T6198 2471:814.305   CPU_ReadMem(1710 bytes @ 0x40000000)
T6198 2471:823.152   Data:  00 00 00 00 00 00 00 00 00 00 00 00 00 00 00 00 ...
T6198 2471:823.171 - 8.896ms returns 0
T2830 2471:948.870 JLINK_IsHalted()
T2830 2471:948.895 - 0.034ms returns TRUE
T2830 2472:149.636 JLINK_IsHalted()
T2830 2472:150.678 - 1.060ms returns TRUE
T2830 2472:353.523 JLINK_IsHalted()
T2830 2472:353.546 - 0.026ms returns TRUE
T2830 2472:557.219 JLINK_IsHalted()
T2830 2472:557.247 - 0.032ms returns TRUE
T31C4 2472:731.458 JLINK_ReadReg(R15 (PC))
T31C4 2472:732.088 - 0.641ms returns 0x00402CFA
T31C4 2472:732.219 JLINK_GetBPInfo(BPHandle = 1)
T31C4 2472:732.230 - 0.015ms returns 0x0
T31C4 2472:732.241 JLINK_ClrBPEx(BPHandle = 0x00000001)
T31C4 2472:732.251 - 0.013ms returns 0x00
T31C4 2472:732.277 JLINK_Step()
T31C4 2472:732.289    -- Read from flash cache (2 bytes @ 0x00402CFA)
T31C4 2472:732.304    -- Read from flash cache (4 bytes @ 0x00402D38)
T31C4 2472:732.321   -- Simulated
T31C4 2472:732.332 - 0.058ms returns 0
T31C4 2472:732.343 JLINK_SetBPEx(Addr = 0x00402CFA, Type = 0xFFFFFFF2)
T31C4 2472:732.352 - 0.013ms returns 0x00000007
T31C4 2472:732.361 JLINK_GetBPInfo(BPHandle = 7)
T31C4 2472:732.369 - 0.011ms returns 0x0
T31C4 2472:732.392 JLINK_Go()
T31C4 2472:732.403    -- Read from flash cache (2 bytes @ 0x00402CFC)
T31C4 2472:732.414   -- Simulated
T31C4 2472:732.426    -- Read from flash cache (2 bytes @ 0x00405554)
T31C4 2472:732.445   CPU_WriteMem(12 bytes @ 0x2000DC2C)
T31C4 2472:733.076   -- Simulated
T31C4 2472:733.105    -- Read from flash cache (2 bytes @ 0x00405556)
T31C4 2472:733.118   -- Simulated
T31C4 2472:733.129    -- Read from flash cache (2 bytes @ 0x00405558)
T31C4 2472:733.140   -- Simulated
T31C4 2472:733.151    -- Read from flash cache (2 bytes @ 0x0040555A)
T31C4 2472:733.163    -- Read from flash cache (4 bytes @ 0x004055A0)
T31C4 2472:733.174   -- Simulated
T31C4 2472:733.186    -- Read from flash cache (2 bytes @ 0x0040555C)
T31C4 2472:733.197    -- Read from flash cache (4 bytes @ 0x004055A4)
T31C4 2472:733.208   -- Simulated
T31C4 2472:733.218    -- Read from flash cache (2 bytes @ 0x0040555E)
T31C4 2472:733.229   -- Simulated
T31C4 2472:733.240    -- Read from flash cache (2 bytes @ 0x0040518C)
T31C4 2472:733.266   CPU_WriteMem(4 bytes @ 0x2000DC1C)
T31C4 2472:733.864   -- Simulated
T31C4 2472:733.882    -- Read from flash cache (2 bytes @ 0x0040518E)
T31C4 2472:733.893   -- Simulated
T31C4 2472:733.904    -- Read from flash cache (2 bytes @ 0x00405190)
T31C4 2472:733.915   -- Simulated
T31C4 2472:733.929   CPU_ReadMem(4 bytes @ 0xE000ED90)
T31C4 2472:734.462   CPU_ReadMem(4 bytes @ 0xE000ED94)
T31C4 2472:735.050    -- Start of preparing flash programming
T31C4 2472:735.070    -- Calculating RAM usage
T31C4 2472:735.087    -- RAM usage = 10020 Bytes
T31C4 2472:735.099    -- Preserving CPU registers
T31C4 2472:735.122    -- Preparing memory
T31C4 2472:735.134    -- Preparing target
T31C4 2472:895.886    -- Preserving target RAM temporarily used for programming
T31C4 2472:945.174    -- Downloading RAMCode
T31C4 2472:961.210    -- Preparing RAMCode
T31C4 2472:972.285    -- End of preparing flash programming
T31C4 2472:972.322    -- Read from flash cache (4096 bytes @ 0x00405000)
